
TE6C8 000:004 SEGGER J-Link V6.16c Log File (0000ms, 0004ms total)
TE6C8 000:004 DLL Compiled: Jun 16 2017 18:14:49 (0000ms, 0004ms total)
TE6C8 000:004 Logging started @ 2021-05-06 08:59 (0000ms, 0004ms total)
TE6C8 000:004 JLINK_SetWarnOutHandler(...) (0000ms, 0004ms total)
TE6C8 000:004 JLINK_OpenEx(...)
Firmware: J-Link ARM V8 compiled Nov 28 2014 13:44:46
Hardware: V8.00
S/N: 788594195
Feature(s): RDI,FlashDL,FlashBP,JFlash,GDBWEBSRV Webserver running on local port 19080 (0010ms, 0014ms total)
TE6C8 000:004   returns O.K. (0010ms, 0014ms total)
TE6C8 000:014 JLINK_GetEmuCaps()  returns 0xB9FF7BBF (0000ms, 0014ms total)
TE6C8 000:014 JLINK_TIF_GetAvailable(...) (0000ms, 0014ms total)
TE6C8 000:014 JLINK_SetErrorOutHandler(...) (0000ms, 0014ms total)
TE6C8 000:014 JLINK_ExecCommand("ProjectFile = "D:\智能锁方案（APM32F030C8T6）\APM32F030C8X\APM32-TUYAWIFI(带临时密码)\APM32F030C8X\MDK-ARM\JLinkSettings.ini"", ...). Device "STM32F030C8" selected.  returns 0x00 (0090ms, 0104ms total)
TE6C8 000:108 JLINK_ExecCommand("Device = STM32F030C8Tx", ...). Device "STM32F030C8" selected.  returns 0x00 (0007ms, 0111ms total)
TE6C8 000:115 JLINK_ExecCommand("DisableConnectionTimeout", ...).   returns 0x01 (0000ms, 0111ms total)
TE6C8 000:115 JLINK_GetHardwareVersion()  returns 0x13880 (0000ms, 0111ms total)
TE6C8 000:115 JLINK_GetDLLVersion()  returns 61603 (0000ms, 0111ms total)
TE6C8 000:115 JLINK_GetFirmwareString(...) (0000ms, 0111ms total)
TE6C8 000:127 JLINK_GetDLLVersion()  returns 61603 (0000ms, 0111ms total)
TE6C8 000:127 JLINK_GetCompileDateTime() (0000ms, 0111ms total)
TE6C8 000:132 JLINK_GetFirmwareString(...) (0000ms, 0111ms total)
TE6C8 000:135 JLINK_GetHardwareVersion()  returns 0x13880 (0000ms, 0111ms total)
TE6C8 000:150 JLINK_TIF_Select(JLINKARM_TIF_SWD)  returns 0x00 (0000ms, 0111ms total)
TE6C8 000:150 JLINK_SetSpeed(2000) (0000ms, 0111ms total)
TE6C8 000:150 JLINK_GetId() >0x10B TIF>Found SW-DP with ID 0x0BC11477 >0x0D TIF> >0x28 TIF> >0x0D TIF> >0x28 TIF> >0x0D TIF> >0x28 TIF> >0x0D TIF> >0x28 TIF> >0x0D TIF> >0x21 TIF> >0x0D TIF> >0x28 TIF> >0x0D TIF> >0x28 TIF> >0x0D TIF> >0x28 TIF> >0x0D TIF> >0x21 TIF> >0x0D TIF> >0x21 TIF> >0x0D TIF> >0x28 TIF> >0x0D TIF> >0x21 TIF> >0x0D TIF> >0x21 TIF> >0x0D TIF> >0x28 TIF> >0x0D TIF> >0x21 TIF> >0x0D TIF> >0x21 TIF> >0x0D TIF> >0x28 TIF> >0x0D TIF> >0x28 TIF> >0x0D TIF> >0x28 TIF> >0x0D TIF> >0x21 TIF>
 >0x0D TIF> >0x21 TIF> >0x0D TIF> >0x28 TIF> >0x0D TIF> >0x28 TIF> >0x0D TIF> >0x28 TIF> >0x0D TIF> >0x21 TIF> >0x0D TIF> >0x21 TIF> >0x0D TIF> >0x28 TIF> >0x0D TIF> >0x21 TIF> >0x0D TIF> >0x21 TIF> >0x0D TIF> >0x28 TIF> >0x0D TIF> >0x21 TIF> >0x0D TIF> >0x21 TIF> >0x0D TIF> >0x28 TIF> >0x0D TIF> >0x21 TIF> >0x0D TIF> >0x21 TIF> >0x0D TIF> >0x28 TIF> >0x0D TIF> >0x21 TIF> >0x0D TIF> >0x21 TIF> >0x0D TIF> >0x28 TIF> >0x0D TIF> >0x21 TIF> >0x0D TIF> >0x21 TIF> >0x10B TIF>Found SW-DP with ID 0x0BC11477
 >0x0D TIF> >0x28 TIF> >0x0D TIF> >0x28 TIF> >0x0D TIF> >0x28 TIF> >0x0D TIF> >0x28 TIF> >0x0D TIF> >0x21 TIF> >0x0D TIF> >0x28 TIF>Scanning APs, stopping at first AHB-AP found. >0x0D TIF> >0x28 TIF> >0x0D TIF> >0x21 TIF> >0x0D TIF> >0x21 TIF>AP[0] IDR: 0x04770031 (AHB-AP) >0x0D TIF> >0x28 TIF> >0x0D TIF> >0x21 TIF> >0x0D TIF> >0x21 TIF>AHB-AP ROM: 0xE00FF000 (Base addr. of first ROM table) >0x0D TIF> >0x28 TIF> >0x0D TIF> >0x28 TIF> >0x0D TIF> >0x28 TIF> >0x0D TIF> >0x21 TIF> >0x0D TIF> >0x21 TIF>
 >0x0D TIF> >0x28 TIF> >0x0D TIF> >0x21 TIF> >0x0D TIF> >0x21 TIF>CPUID reg: 0x410CC601. Implementer code: 0x41 (ARM)Found Cortex-M0 r0p1, Little endian. -- CPU_ReadMem(4 bytes @ 0xE000EDF0) -- CPU_WriteMem(4 bytes @ 0xE000EDF0) -- CPU_ReadMem(4 bytes @ 0xE0002000)FPUnit: 4 code (BP) slots and 0 literal slots -- CPU_ReadMem(4 bytes @ 0xE000EDFC) -- CPU_WriteMem(4 bytes @ 0xE000EDFC) -- CPU_ReadMem(4 bytes @ 0xE0001000) -- CPU_WriteMem(4 bytes @ 0xE0001000)CoreSight components:ROMTbl[0] @ E00FF000
 -- CPU_ReadMem(16 bytes @ 0xE00FF000) -- CPU_ReadMem(16 bytes @ 0xE000EFF0) -- CPU_ReadMem(16 bytes @ 0xE000EFE0)ROMTbl[0][0]: E000E000, CID: B105E00D, PID: 000BB008 SCS -- CPU_ReadMem(16 bytes @ 0xE0001FF0) -- CPU_ReadMem(16 bytes @ 0xE0001FE0)ROMTbl[0][1]: E0001000, CID: B105E00D, PID: 000BB00A DWT -- CPU_ReadMem(16 bytes @ 0xE0002FF0) -- CPU_ReadMem(16 bytes @ 0xE0002FE0)ROMTbl[0][2]: E0002000, CID: B105E00D, PID: 000BB00B FPB -- CPU is running -- CPU_WriteMem(4 bytes @ 0xE000EDF0) -- CPU is running
 -- CPU_WriteMem(4 bytes @ 0xE000EDFC) >0x35 TIF>Setting AIRCR.SYSRESETREQ -- CPU is running -- CPU_WriteMem(4 bytes @ 0xE000ED0C) >0x0D TIF> >0x28 TIF> -- CPU_ReadMem(4 bytes @ 0xE000ED0C) -- CPU_ReadMem(4 bytes @ 0xE000EDF0) -- CPU_ReadMem(4 bytes @ 0xE000EDF0) -- CPU_ReadMem(4 bytes @ 0xE000EDF0) -- CPU is running -- CPU_WriteMem(4 bytes @ 0xE000EDF0) -- CPU is running -- CPU_WriteMem(4 bytes @ 0xE000EDFC) -- CPU_ReadMem(4 bytes @ 0xE000EDF0) -- CPU_WriteMem(4 bytes @ 0xE0002000)
 -- CPU_ReadMem(4 bytes @ 0xE000EDFC) -- CPU_ReadMem(4 bytes @ 0xE0001000) -- CPU_WriteMem(4 bytes @ 0xE0001000) -- CPU_WriteMem(8192 bytes @ 0x20000000) >0x0D TIF> >0x21 TIF>  returns 0x0BC11477 (0243ms, 0354ms total)
TE6C8 000:393 JLINK_GetDLLVersion()  returns 61603 (0001ms, 0355ms total)
TE6C8 000:394 JLINK_CORE_GetFound()  returns 0x60000FF (0000ms, 0355ms total)
TE6C8 000:394 JLINK_GetDebugInfo(0x100 = JLINKARM_ROM_TABLE_ADDR_INDEX) -- Value=0xE00FF000  returns 0x00 (0000ms, 0355ms total)
TE6C8 000:397 JLINK_GetDebugInfo(0x100 = JLINKARM_ROM_TABLE_ADDR_INDEX) -- Value=0xE00FF000  returns 0x00 (0000ms, 0355ms total)
TE6C8 000:397 JLINK_GetDebugInfo(0x101 = JLINKARM_DEBUG_INFO_ETM_ADDR_INDEX) -- Value=0x00000000  returns 0x00 (0000ms, 0355ms total)
TE6C8 000:397 JLINK_ReadMemEx(0xE0041FF0, 0x0010 Bytes, ..., Flags = 0x02000004) -- CPU_ReadMem(16 bytes @ 0xE0041FF0) - Data: 00 00 00 00 00 00 00 00 00 00 00 00 00 00 00 00  returns 0x10 (0001ms, 0356ms total)
TE6C8 000:398 JLINK_GetDebugInfo(0x102 = JLINKARM_DEBUG_INFO_MTB_ADDR_INDEX) -- Value=0x00000000  returns 0x00 (0000ms, 0356ms total)
TE6C8 000:398 JLINK_GetDebugInfo(0x103 = JLINKARM_DEBUG_INFO_TPIU_ADDR_INDEX) -- Value=0x00000000  returns 0x00 (0000ms, 0356ms total)
TE6C8 000:398 JLINK_ReadMemEx(0xE0040FF0, 0x0010 Bytes, ..., Flags = 0x02000004) -- CPU_ReadMem(16 bytes @ 0xE0040FF0) - Data: 00 00 00 00 00 00 00 00 00 00 00 00 00 00 00 00  returns 0x10 (0001ms, 0357ms total)
TE6C8 000:399 JLINK_GetDebugInfo(0x104 = JLINKARM_DEBUG_INFO_ITM_ADDR_INDEX) -- Value=0xE0000000  returns 0x00 (0000ms, 0357ms total)
TE6C8 000:399 JLINK_GetDebugInfo(0x105 = JLINKARM_DEBUG_INFO_DWT_ADDR_INDEX) -- Value=0xE0001000  returns 0x00 (0000ms, 0357ms total)
TE6C8 000:399 JLINK_GetDebugInfo(0x106 = JLINKARM_DEBUG_INFO_FPB_ADDR_INDEX) -- Value=0xE0002000  returns 0x00 (0000ms, 0357ms total)
TE6C8 000:399 JLINK_GetDebugInfo(0x107 = JLINKARM_DEBUG_INFO_NVIC_ADDR_INDEX) -- Value=0xE000E000  returns 0x00 (0000ms, 0357ms total)
TE6C8 000:399 JLINK_GetDebugInfo(0x10C = JLINKARM_DEBUG_INFO_DBG_ADDR_INDEX) -- Value=0xE000EDF0  returns 0x00 (0000ms, 0357ms total)
TE6C8 000:399 JLINK_ReadMemU32(0xE000ED00, 0x0001 Items, ...) -- CPU_ReadMem(4 bytes @ 0xE000ED00) - Data: 01 C6 0C 41  returns 0x01 (0001ms, 0358ms total)
TE6C8 000:400 JLINK_GetDebugInfo(0x10F = JLINKARM_DEBUG_INFO_HAS_CORTEX_M_SECURITY_EXT_INDEX) -- Value=0x00000000  returns 0x00 (0000ms, 0358ms total)
TE6C8 000:400 JLINK_SetResetType(JLINKARM_CM3_RESET_TYPE_NORMAL)  returns JLINKARM_CM3_RESET_TYPE_NORMAL (0000ms, 0358ms total)
TE6C8 000:400 JLINK_Reset() -- CPU_ReadMem(4 bytes @ 0x20000000) -- CPU_WriteMem(4 bytes @ 0x20000000) -- CPU_WriteMem(4 bytes @ 0xE000EDF0) -- CPU_WriteMem(4 bytes @ 0xE000EDFC) >0x35 TIF>Setting AIRCR.SYSRESETREQ -- CPU_WriteMem(4 bytes @ 0xE000ED0C) >0x0D TIF> >0x28 TIF> -- CPU_ReadMem(4 bytes @ 0xE000ED0C) -- CPU_ReadMem(4 bytes @ 0xE000EDF0) -- CPU_ReadMem(4 bytes @ 0xE000EDF0) -- CPU_ReadMem(4 bytes @ 0xE000EDF0) -- CPU_WriteMem(4 bytes @ 0xE000EDF0) -- CPU_WriteMem(4 bytes @ 0xE000EDFC)
 -- CPU_ReadMem(4 bytes @ 0xE000EDF0) -- CPU_WriteMem(4 bytes @ 0xE0002000) -- CPU_ReadMem(4 bytes @ 0xE000EDFC) -- CPU_ReadMem(4 bytes @ 0xE0001000) -- CPU_WriteMem(4 bytes @ 0xE0001000) (0077ms, 0435ms total)
TE6C8 000:477 JLINK_Halt()  returns 0x00 (0000ms, 0435ms total)
TE6C8 000:477 JLINK_ReadMemU32(0xE000EDF0, 0x0001 Items, ...) -- CPU_ReadMem(4 bytes @ 0xE000EDF0) - Data: 03 00 03 01  returns 0x01 (0001ms, 0436ms total)
TE6C8 000:478 JLINK_WriteU32(0xE000EDF0, 0xA05F0003) -- CPU_WriteMem(4 bytes @ 0xE000EDF0)  returns 0x00 (0000ms, 0436ms total)
TE6C8 000:478 JLINK_WriteU32(0xE000EDFC, 0x01000000) -- CPU_WriteMem(4 bytes @ 0xE000EDFC)  returns 0x00 (0001ms, 0437ms total)
TE6C8 000:493 JLINK_GetHWStatus(...)  returns 0x00 (0000ms, 0437ms total)
TE6C8 000:504 JLINK_GetNumBPUnits(Type = 0xFFFFFF00)  returns 0x04 (0000ms, 0437ms total)
TE6C8 000:504 JLINK_GetNumBPUnits(Type = 0xF0)  returns 0x2000 (0000ms, 0437ms total)
TE6C8 000:504 JLINK_GetNumWPUnits()  returns 0x02 (0000ms, 0437ms total)
TE6C8 000:516 JLINK_GetSpeed()  returns 0x7D0 (0000ms, 0437ms total)
TE6C8 000:523 JLINK_ReadMemU32(0xE000E004, 0x0001 Items, ...) -- CPU_ReadMem(4 bytes @ 0xE000E004) - Data: 00 00 00 00  returns 0x01 (0001ms, 0438ms total)
TE6C8 000:524 JLINK_Halt()  returns 0x00 (0000ms, 0438ms total)
TE6C8 000:524 JLINK_IsHalted()  returns TRUE (0000ms, 0438ms total)
TE6C8 000:527 JLINK_WriteMem(0x20000000, 0x0170 Bytes, ...) - Data: 00 BE 0A E0 0D 78 2D 06 68 40 08 24 40 00 00 D3 ... -- CPU_WriteMem(368 bytes @ 0x20000000)  returns 0x170 (0005ms, 0443ms total)
TE6C8 000:532 JLINK_WriteReg(R0, 0x08000000)  returns 0x00 (0000ms, 0443ms total)
TE6C8 000:532 JLINK_WriteReg(R1, 0x02DC6C00)  returns 0x00 (0000ms, 0443ms total)
TE6C8 000:532 JLINK_WriteReg(R2, 0x00000001)  returns 0x00 (0000ms, 0443ms total)
TE6C8 000:533 JLINK_WriteReg(R3, 0x00000000)  returns 0x00 (0000ms, 0444ms total)
TE6C8 000:533 JLINK_WriteReg(R4, 0x00000000)  returns 0x00 (0000ms, 0444ms total)
TE6C8 000:533 JLINK_WriteReg(R5, 0x00000000)  returns 0x00 (0000ms, 0444ms total)
TE6C8 000:533 JLINK_WriteReg(R6, 0x00000000)  returns 0x00 (0000ms, 0444ms total)
TE6C8 000:533 JLINK_WriteReg(R7, 0x00000000)  returns 0x00 (0000ms, 0444ms total)
TE6C8 000:533 JLINK_WriteReg(R8, 0x00000000)  returns 0x00 (0000ms, 0444ms total)
TE6C8 000:533 JLINK_WriteReg(R9, 0x2000016C)  returns 0x00 (0000ms, 0444ms total)
TE6C8 000:533 JLINK_WriteReg(R10, 0x00000000)  returns 0x00 (0000ms, 0444ms total)
TE6C8 000:533 JLINK_WriteReg(R11, 0x00000000)  returns 0x00 (0000ms, 0444ms total)
TE6C8 000:533 JLINK_WriteReg(R12, 0x00000000)  returns 0x00 (0000ms, 0444ms total)
TE6C8 000:533 JLINK_WriteReg(R13 (SP), 0x20001000)  returns 0x00 (0000ms, 0444ms total)
TE6C8 000:533 JLINK_WriteReg(R14, 0x20000001)  returns 0x00 (0000ms, 0444ms total)
TE6C8 000:533 JLINK_WriteReg(R15 (PC), 0x20000038)  returns 0x00 (0000ms, 0444ms total)
TE6C8 000:533 JLINK_WriteReg(XPSR, 0x01000000)  returns 0x00 (0000ms, 0444ms total)
TE6C8 000:533 JLINK_WriteReg(MSP, 0x20001000)  returns 0x00 (0000ms, 0444ms total)
TE6C8 000:533 JLINK_WriteReg(PSP, 0x20001000)  returns 0x00 (0000ms, 0444ms total)
TE6C8 000:533 JLINK_WriteReg(CFBP, 0x00000000)  returns 0x00 (0000ms, 0444ms total)
TE6C8 000:533 JLINK_SetBPEx(Addr = 0x20000000, Type = 0xFFFFFFF2) -- CPU_ReadMem(2 bytes @ 0x20000000)  returns 0x00000001 (0001ms, 0445ms total)
TE6C8 000:534 JLINK_Go() -- CPU_WriteMem(2 bytes @ 0x20000000) -- CPU_ReadMem(4 bytes @ 0xE0001000) -- CPU_WriteMem(4 bytes @ 0xE0001000) -- CPU_WriteMem(4 bytes @ 0xE0002008) -- CPU_WriteMem(4 bytes @ 0xE000200C) -- CPU_WriteMem(4 bytes @ 0xE0002010) -- CPU_WriteMem(4 bytes @ 0xE0002014) -- CPU_WriteMem(4 bytes @ 0xE0001004) (0006ms, 0451ms total)
TE6C8 000:540 JLINK_IsHalted() -- CPU_ReadMem(2 bytes @ 0x20000000)  returns TRUE (0004ms, 0455ms total)
TE6C8 000:544 JLINK_ReadReg(R15 (PC))  returns 0x20000000 (0000ms, 0451ms total)
TE6C8 000:544 JLINK_ClrBPEx(BPHandle = 0x00000001)  returns 0x00 (0000ms, 0451ms total)
TE6C8 000:544 JLINK_ReadReg(R0)  returns 0x00000000 (0000ms, 0451ms total)
TE6C8 000:546 JLINK_WriteReg(R0, 0x08000000)  returns 0x00 (0000ms, 0451ms total)
TE6C8 000:546 JLINK_WriteReg(R1, 0x02DC6C00)  returns 0x00 (0000ms, 0451ms total)
TE6C8 000:546 JLINK_WriteReg(R2, 0x00000001)  returns 0x00 (0000ms, 0451ms total)
TE6C8 000:546 JLINK_WriteReg(R3, 0x00000000)  returns 0x00 (0000ms, 0451ms total)
TE6C8 000:546 JLINK_WriteReg(R4, 0x00000000)  returns 0x00 (0000ms, 0451ms total)
TE6C8 000:546 JLINK_WriteReg(R5, 0x00000000)  returns 0x00 (0000ms, 0451ms total)
TE6C8 000:546 JLINK_WriteReg(R6, 0x00000000)  returns 0x00 (0000ms, 0451ms total)
TE6C8 000:546 JLINK_WriteReg(R7, 0x00000000)  returns 0x00 (0000ms, 0451ms total)
TE6C8 000:546 JLINK_WriteReg(R8, 0x00000000)  returns 0x00 (0000ms, 0451ms total)
TE6C8 000:546 JLINK_WriteReg(R9, 0x2000016C)  returns 0x00 (0000ms, 0451ms total)
TE6C8 000:546 JLINK_WriteReg(R10, 0x00000000)  returns 0x00 (0000ms, 0451ms total)
TE6C8 000:546 JLINK_WriteReg(R11, 0x00000000)  returns 0x00 (0000ms, 0451ms total)
TE6C8 000:546 JLINK_WriteReg(R12, 0x00000000)  returns 0x00 (0000ms, 0451ms total)
TE6C8 000:546 JLINK_WriteReg(R13 (SP), 0x20001000)  returns 0x00 (0000ms, 0451ms total)
TE6C8 000:546 JLINK_WriteReg(R14, 0x20000001)  returns 0x00 (0000ms, 0451ms total)
TE6C8 000:546 JLINK_WriteReg(R15 (PC), 0x20000074)  returns 0x00 (0000ms, 0451ms total)
TE6C8 000:546 JLINK_WriteReg(XPSR, 0x01000000)  returns 0x00 (0000ms, 0451ms total)
TE6C8 000:546 JLINK_WriteReg(MSP, 0x20001000)  returns 0x00 (0000ms, 0451ms total)
TE6C8 000:546 JLINK_WriteReg(PSP, 0x20001000)  returns 0x00 (0000ms, 0451ms total)
TE6C8 000:546 JLINK_WriteReg(CFBP, 0x00000000)  returns 0x00 (0001ms, 0452ms total)
TE6C8 000:547 JLINK_SetBPEx(Addr = 0x20000000, Type = 0xFFFFFFF2)  returns 0x00000002 (0000ms, 0452ms total)
TE6C8 000:547 JLINK_Go() -- CPU_ReadMem(4 bytes @ 0xE0001000) -- CPU_WriteMem(4 bytes @ 0xE0001000) (0002ms, 0454ms total)
TE6C8 000:549 JLINK_IsHalted()  returns FALSE (0001ms, 0455ms total)
TE6C8 000:609 JLINK_IsHalted() -- CPU_ReadMem(2 bytes @ 0x20000000)  returns TRUE (0004ms, 0458ms total)
TE6C8 000:613 JLINK_ReadReg(R15 (PC))  returns 0x20000000 (0000ms, 0454ms total)
TE6C8 000:613 JLINK_ClrBPEx(BPHandle = 0x00000002)  returns 0x00 (0000ms, 0454ms total)
TE6C8 000:613 JLINK_ReadReg(R0)  returns 0x00000000 (0000ms, 0454ms total)
TE6C8 000:665 JLINK_WriteReg(R0, 0x00000001)  returns 0x00 (0000ms, 0454ms total)
TE6C8 000:665 JLINK_WriteReg(R1, 0x02DC6C00)  returns 0x00 (0000ms, 0454ms total)
TE6C8 000:665 JLINK_WriteReg(R2, 0x00000001)  returns 0x00 (0000ms, 0454ms total)
TE6C8 000:665 JLINK_WriteReg(R3, 0x00000000)  returns 0x00 (0000ms, 0454ms total)
TE6C8 000:665 JLINK_WriteReg(R4, 0x00000000)  returns 0x00 (0000ms, 0454ms total)
TE6C8 000:665 JLINK_WriteReg(R5, 0x00000000)  returns 0x00 (0000ms, 0454ms total)
TE6C8 000:665 JLINK_WriteReg(R6, 0x00000000)  returns 0x00 (0000ms, 0454ms total)
TE6C8 000:665 JLINK_WriteReg(R7, 0x00000000)  returns 0x00 (0000ms, 0454ms total)
TE6C8 000:665 JLINK_WriteReg(R8, 0x00000000)  returns 0x00 (0000ms, 0454ms total)
TE6C8 000:665 JLINK_WriteReg(R9, 0x2000016C)  returns 0x00 (0000ms, 0454ms total)
TE6C8 000:665 JLINK_WriteReg(R10, 0x00000000)  returns 0x00 (0000ms, 0454ms total)
TE6C8 000:665 JLINK_WriteReg(R11, 0x00000000)  returns 0x00 (0001ms, 0455ms total)
TE6C8 000:666 JLINK_WriteReg(R12, 0x00000000)  returns 0x00 (0000ms, 0455ms total)
TE6C8 000:666 JLINK_WriteReg(R13 (SP), 0x20001000)  returns 0x00 (0000ms, 0455ms total)
TE6C8 000:666 JLINK_WriteReg(R14, 0x20000001)  returns 0x00 (0000ms, 0455ms total)
TE6C8 000:666 JLINK_WriteReg(R15 (PC), 0x20000066)  returns 0x00 (0000ms, 0455ms total)
TE6C8 000:666 JLINK_WriteReg(XPSR, 0x01000000)  returns 0x00 (0000ms, 0455ms total)
TE6C8 000:666 JLINK_WriteReg(MSP, 0x20001000)  returns 0x00 (0000ms, 0455ms total)
TE6C8 000:666 JLINK_WriteReg(PSP, 0x20001000)  returns 0x00 (0000ms, 0455ms total)
TE6C8 000:666 JLINK_WriteReg(CFBP, 0x00000000)  returns 0x00 (0000ms, 0455ms total)
TE6C8 000:666 JLINK_SetBPEx(Addr = 0x20000000, Type = 0xFFFFFFF2)  returns 0x00000003 (0000ms, 0455ms total)
TE6C8 000:666 JLINK_Go() -- CPU_ReadMem(4 bytes @ 0xE0001000) -- CPU_WriteMem(4 bytes @ 0xE0001000) (0004ms, 0459ms total)
TE6C8 000:670 JLINK_IsHalted() -- CPU_ReadMem(2 bytes @ 0x20000000)  returns TRUE (0004ms, 0463ms total)
TE6C8 000:674 JLINK_ReadReg(R15 (PC))  returns 0x20000000 (0000ms, 0459ms total)
TE6C8 000:674 JLINK_ClrBPEx(BPHandle = 0x00000003)  returns 0x00 (0000ms, 0459ms total)
TE6C8 000:674 JLINK_ReadReg(R0)  returns 0x00000000 (0000ms, 0459ms total)
TE6C8 000:682 JLINK_WriteMem(0x20000000, 0x0170 Bytes, ...) - Data: 00 BE 0A E0 0D 78 2D 06 68 40 08 24 40 00 00 D3 ... -- CPU_WriteMem(368 bytes @ 0x20000000)  returns 0x170 (0005ms, 0464ms total)
TE6C8 000:687 JLINK_WriteReg(R0, 0x08000000)  returns 0x00 (0000ms, 0464ms total)
TE6C8 000:687 JLINK_WriteReg(R1, 0x02DC6C00)  returns 0x00 (0000ms, 0464ms total)
TE6C8 000:687 JLINK_WriteReg(R2, 0x00000002)  returns 0x00 (0000ms, 0464ms total)
TE6C8 000:687 JLINK_WriteReg(R3, 0x00000000)  returns 0x00 (0000ms, 0464ms total)
TE6C8 000:687 JLINK_WriteReg(R4, 0x00000000)  returns 0x00 (0000ms, 0464ms total)
TE6C8 000:687 JLINK_WriteReg(R5, 0x00000000)  returns 0x00 (0000ms, 0464ms total)
TE6C8 000:687 JLINK_WriteReg(R6, 0x00000000)  returns 0x00 (0000ms, 0464ms total)
TE6C8 000:687 JLINK_WriteReg(R7, 0x00000000)  returns 0x00 (0000ms, 0464ms total)
TE6C8 000:687 JLINK_WriteReg(R8, 0x00000000)  returns 0x00 (0000ms, 0464ms total)
TE6C8 000:687 JLINK_WriteReg(R9, 0x2000016C)  returns 0x00 (0000ms, 0464ms total)
TE6C8 000:687 JLINK_WriteReg(R10, 0x00000000)  returns 0x00 (0000ms, 0464ms total)
TE6C8 000:687 JLINK_WriteReg(R11, 0x00000000)  returns 0x00 (0000ms, 0464ms total)
TE6C8 000:687 JLINK_WriteReg(R12, 0x00000000)  returns 0x00 (0000ms, 0464ms total)
TE6C8 000:687 JLINK_WriteReg(R13 (SP), 0x20001000)  returns 0x00 (0000ms, 0464ms total)
TE6C8 000:687 JLINK_WriteReg(R14, 0x20000001)  returns 0x00 (0000ms, 0464ms total)
TE6C8 000:687 JLINK_WriteReg(R15 (PC), 0x20000038)  returns 0x00 (0000ms, 0464ms total)
TE6C8 000:687 JLINK_WriteReg(XPSR, 0x01000000)  returns 0x00 (0000ms, 0464ms total)
TE6C8 000:687 JLINK_WriteReg(MSP, 0x20001000)  returns 0x00 (0000ms, 0464ms total)
TE6C8 000:687 JLINK_WriteReg(PSP, 0x20001000)  returns 0x00 (0000ms, 0464ms total)
TE6C8 000:687 JLINK_WriteReg(CFBP, 0x00000000)  returns 0x00 (0000ms, 0464ms total)
TE6C8 000:687 JLINK_SetBPEx(Addr = 0x20000000, Type = 0xFFFFFFF2) -- CPU_ReadMem(2 bytes @ 0x20000000)  returns 0x00000004 (0001ms, 0465ms total)
TE6C8 000:688 JLINK_Go() -- CPU_WriteMem(2 bytes @ 0x20000000) -- CPU_ReadMem(4 bytes @ 0xE0001000) -- CPU_WriteMem(4 bytes @ 0xE0001000) (0004ms, 0469ms total)
TE6C8 000:692 JLINK_IsHalted() -- CPU_ReadMem(2 bytes @ 0x20000000)  returns TRUE (0004ms, 0473ms total)
TE6C8 000:696 JLINK_ReadReg(R15 (PC))  returns 0x20000000 (0000ms, 0469ms total)
TE6C8 000:696 JLINK_ClrBPEx(BPHandle = 0x00000004)  returns 0x00 (0000ms, 0469ms total)
TE6C8 000:696 JLINK_ReadReg(R0)  returns 0x00000000 (0000ms, 0469ms total)
TE6C8 000:696 JLINK_WriteMem(0x20000170, 0x0290 Bytes, ...) - Data: 20 1B 00 20 C9 00 00 08 0D 4A 00 08 55 3C 00 08 ... -- CPU_WriteMem(656 bytes @ 0x20000170)  returns 0x290 (0008ms, 0477ms total)
TE6C8 000:704 JLINK_WriteMem(0x20000400, 0x0170 Bytes, ...) - Data: 40 1C 49 1C 5B 1E F9 D1 2B 07 05 D4 00 23 52 1E ... -- CPU_WriteMem(368 bytes @ 0x20000400)  returns 0x170 (0004ms, 0481ms total)
TE6C8 000:708 JLINK_WriteReg(R0, 0x08000000)  returns 0x00 (0000ms, 0481ms total)
TE6C8 000:708 JLINK_WriteReg(R1, 0x00000400)  returns 0x00 (0000ms, 0481ms total)
TE6C8 000:708 JLINK_WriteReg(R2, 0x20000170)  returns 0x00 (0001ms, 0482ms total)
TE6C8 000:709 JLINK_WriteReg(R3, 0x00000000)  returns 0x00 (0000ms, 0482ms total)
TE6C8 000:709 JLINK_WriteReg(R4, 0x00000000)  returns 0x00 (0000ms, 0482ms total)
TE6C8 000:709 JLINK_WriteReg(R5, 0x00000000)  returns 0x00 (0000ms, 0482ms total)
TE6C8 000:709 JLINK_WriteReg(R6, 0x00000000)  returns 0x00 (0000ms, 0482ms total)
TE6C8 000:709 JLINK_WriteReg(R7, 0x00000000)  returns 0x00 (0000ms, 0482ms total)
TE6C8 000:709 JLINK_WriteReg(R8, 0x00000000)  returns 0x00 (0000ms, 0482ms total)
TE6C8 000:709 JLINK_WriteReg(R9, 0x2000016C)  returns 0x00 (0000ms, 0482ms total)
TE6C8 000:709 JLINK_WriteReg(R10, 0x00000000)  returns 0x00 (0000ms, 0482ms total)
TE6C8 000:709 JLINK_WriteReg(R11, 0x00000000)  returns 0x00 (0000ms, 0482ms total)
TE6C8 000:709 JLINK_WriteReg(R12, 0x00000000)  returns 0x00 (0000ms, 0482ms total)
TE6C8 000:709 JLINK_WriteReg(R13 (SP), 0x20001000)  returns 0x00 (0000ms, 0482ms total)
TE6C8 000:709 JLINK_WriteReg(R14, 0x20000001)  returns 0x00 (0000ms, 0482ms total)
TE6C8 000:709 JLINK_WriteReg(R15 (PC), 0x200000FA)  returns 0x00 (0000ms, 0482ms total)
TE6C8 000:709 JLINK_WriteReg(XPSR, 0x01000000)  returns 0x00 (0000ms, 0482ms total)
TE6C8 000:709 JLINK_WriteReg(MSP, 0x20001000)  returns 0x00 (0000ms, 0482ms total)
TE6C8 000:709 JLINK_WriteReg(PSP, 0x20001000)  returns 0x00 (0000ms, 0482ms total)
TE6C8 000:709 JLINK_WriteReg(CFBP, 0x00000000)  returns 0x00 (0000ms, 0482ms total)
TE6C8 000:709 JLINK_SetBPEx(Addr = 0x20000000, Type = 0xFFFFFFF2)  returns 0x00000005 (0000ms, 0482ms total)
TE6C8 000:709 JLINK_Go() -- CPU_ReadMem(4 bytes @ 0xE0001000) -- CPU_WriteMem(4 bytes @ 0xE0001000) (0003ms, 0485ms total)
TE6C8 000:712 JLINK_IsHalted()  returns FALSE (0001ms, 0486ms total)
TE6C8 000:718 JLINK_IsHalted()  returns FALSE (0000ms, 0485ms total)
TE6C8 000:720 JLINK_IsHalted()  returns FALSE (0000ms, 0485ms total)
TE6C8 000:722 JLINK_IsHalted()  returns FALSE (0000ms, 0485ms total)
TE6C8 000:724 JLINK_IsHalted() -- CPU_ReadMem(2 bytes @ 0x20000000)  returns TRUE (0003ms, 0488ms total)
TE6C8 000:727 JLINK_ReadReg(R15 (PC))  returns 0x20000000 (0000ms, 0485ms total)
TE6C8 000:727 JLINK_ClrBPEx(BPHandle = 0x00000005)  returns 0x00 (0000ms, 0485ms total)
TE6C8 000:727 JLINK_ReadReg(R0)  returns 0x00000000 (0001ms, 0486ms total)
TE6C8 000:728 JLINK_WriteMem(0x20000170, 0x0290 Bytes, ...) - Data: 0C 00 00 20 10 B5 07 F0 2F F9 10 BD 10 B5 07 F0 ... -- CPU_WriteMem(656 bytes @ 0x20000170)  returns 0x290 (0007ms, 0493ms total)
TE6C8 000:735 JLINK_WriteMem(0x20000400, 0x0170 Bytes, ...) - Data: C8 B2 70 BD 48 0B 00 20 F1 B5 00 20 8C B0 03 90 ... -- CPU_WriteMem(368 bytes @ 0x20000400)  returns 0x170 (0005ms, 0498ms total)
TE6C8 000:740 JLINK_WriteReg(R0, 0x08000400)  returns 0x00 (0000ms, 0498ms total)
TE6C8 000:740 JLINK_WriteReg(R1, 0x00000400)  returns 0x00 (0000ms, 0498ms total)
TE6C8 000:740 JLINK_WriteReg(R2, 0x20000170)  returns 0x00 (0000ms, 0498ms total)
TE6C8 000:740 JLINK_WriteReg(R3, 0x00000000)  returns 0x00 (0000ms, 0498ms total)
TE6C8 000:740 JLINK_WriteReg(R4, 0x00000000)  returns 0x00 (0000ms, 0498ms total)
TE6C8 000:740 JLINK_WriteReg(R5, 0x00000000)  returns 0x00 (0000ms, 0498ms total)
TE6C8 000:740 JLINK_WriteReg(R6, 0x00000000)  returns 0x00 (0000ms, 0498ms total)
TE6C8 000:740 JLINK_WriteReg(R7, 0x00000000)  returns 0x00 (0000ms, 0498ms total)
TE6C8 000:740 JLINK_WriteReg(R8, 0x00000000)  returns 0x00 (0000ms, 0498ms total)
TE6C8 000:740 JLINK_WriteReg(R9, 0x2000016C)  returns 0x00 (0000ms, 0498ms total)
TE6C8 000:740 JLINK_WriteReg(R10, 0x00000000)  returns 0x00 (0000ms, 0498ms total)
TE6C8 000:740 JLINK_WriteReg(R11, 0x00000000)  returns 0x00 (0001ms, 0499ms total)
TE6C8 000:741 JLINK_WriteReg(R12, 0x00000000)  returns 0x00 (0000ms, 0499ms total)
TE6C8 000:741 JLINK_WriteReg(R13 (SP), 0x20001000)  returns 0x00 (0000ms, 0499ms total)
TE6C8 000:741 JLINK_WriteReg(R14, 0x20000001)  returns 0x00 (0000ms, 0499ms total)
TE6C8 000:741 JLINK_WriteReg(R15 (PC), 0x200000FA)  returns 0x00 (0000ms, 0499ms total)
TE6C8 000:741 JLINK_WriteReg(XPSR, 0x01000000)  returns 0x00 (0000ms, 0499ms total)
TE6C8 000:741 JLINK_WriteReg(MSP, 0x20001000)  returns 0x00 (0000ms, 0499ms total)
TE6C8 000:741 JLINK_WriteReg(PSP, 0x20001000)  returns 0x00 (0000ms, 0499ms total)
TE6C8 000:741 JLINK_WriteReg(CFBP, 0x00000000)  returns 0x00 (0000ms, 0499ms total)
TE6C8 000:741 JLINK_SetBPEx(Addr = 0x20000000, Type = 0xFFFFFFF2)  returns 0x00000006 (0000ms, 0499ms total)
TE6C8 000:741 JLINK_Go() -- CPU_ReadMem(4 bytes @ 0xE0001000) -- CPU_WriteMem(4 bytes @ 0xE0001000) (0003ms, 0502ms total)
TE6C8 000:744 JLINK_IsHalted()  returns FALSE (0000ms, 0502ms total)
TE6C8 000:749 JLINK_IsHalted()  returns FALSE (0000ms, 0502ms total)
TE6C8 000:751 JLINK_IsHalted()  returns FALSE (0000ms, 0502ms total)
TE6C8 000:753 JLINK_IsHalted()  returns FALSE (0001ms, 0503ms total)
TE6C8 000:755 JLINK_IsHalted() -- CPU_ReadMem(2 bytes @ 0x20000000)  returns TRUE (0003ms, 0505ms total)
TE6C8 000:758 JLINK_ReadReg(R15 (PC))  returns 0x20000000 (0000ms, 0502ms total)
TE6C8 000:758 JLINK_ClrBPEx(BPHandle = 0x00000006)  returns 0x00 (0000ms, 0502ms total)
TE6C8 000:758 JLINK_ReadReg(R0)  returns 0x00000000 (0000ms, 0502ms total)
TE6C8 000:760 JLINK_WriteMem(0x20000170, 0x0290 Bytes, ...) - Data: 81 73 20 30 81 73 02 46 41 76 20 32 11 71 02 23 ... -- CPU_WriteMem(656 bytes @ 0x20000170)  returns 0x290 (0008ms, 0510ms total)
TE6C8 000:768 JLINK_WriteMem(0x20000400, 0x0170 Bytes, ...) - Data: F7 D3 08 A0 07 F0 C4 FF 70 BD 00 00 BC D3 C3 DC ... -- CPU_WriteMem(368 bytes @ 0x20000400)  returns 0x170 (0006ms, 0516ms total)
TE6C8 000:774 JLINK_WriteReg(R0, 0x08000800)  returns 0x00 (0000ms, 0516ms total)
TE6C8 000:774 JLINK_WriteReg(R1, 0x00000400)  returns 0x00 (0000ms, 0516ms total)
TE6C8 000:774 JLINK_WriteReg(R2, 0x20000170)  returns 0x00 (0000ms, 0516ms total)
TE6C8 000:774 JLINK_WriteReg(R3, 0x00000000)  returns 0x00 (0000ms, 0516ms total)
TE6C8 000:774 JLINK_WriteReg(R4, 0x00000000)  returns 0x00 (0000ms, 0516ms total)
TE6C8 000:774 JLINK_WriteReg(R5, 0x00000000)  returns 0x00 (0000ms, 0516ms total)
TE6C8 000:774 JLINK_WriteReg(R6, 0x00000000)  returns 0x00 (0000ms, 0516ms total)
TE6C8 000:774 JLINK_WriteReg(R7, 0x00000000)  returns 0x00 (0000ms, 0516ms total)
TE6C8 000:774 JLINK_WriteReg(R8, 0x00000000)  returns 0x00 (0000ms, 0516ms total)
TE6C8 000:774 JLINK_WriteReg(R9, 0x2000016C)  returns 0x00 (0000ms, 0516ms total)
TE6C8 000:774 JLINK_WriteReg(R10, 0x00000000)  returns 0x00 (0000ms, 0516ms total)
TE6C8 000:774 JLINK_WriteReg(R11, 0x00000000)  returns 0x00 (0000ms, 0516ms total)
TE6C8 000:774 JLINK_WriteReg(R12, 0x00000000)  returns 0x00 (0000ms, 0516ms total)
TE6C8 000:774 JLINK_WriteReg(R13 (SP), 0x20001000)  returns 0x00 (0000ms, 0516ms total)
TE6C8 000:774 JLINK_WriteReg(R14, 0x20000001)  returns 0x00 (0000ms, 0516ms total)
TE6C8 000:774 JLINK_WriteReg(R15 (PC), 0x200000FA)  returns 0x00 (0000ms, 0516ms total)
TE6C8 000:774 JLINK_WriteReg(XPSR, 0x01000000)  returns 0x00 (0000ms, 0516ms total)
TE6C8 000:774 JLINK_WriteReg(MSP, 0x20001000)  returns 0x00 (0000ms, 0516ms total)
TE6C8 000:774 JLINK_WriteReg(PSP, 0x20001000)  returns 0x00 (0000ms, 0516ms total)
TE6C8 000:774 JLINK_WriteReg(CFBP, 0x00000000)  returns 0x00 (0000ms, 0516ms total)
TE6C8 000:774 JLINK_SetBPEx(Addr = 0x20000000, Type = 0xFFFFFFF2)  returns 0x00000007 (0000ms, 0516ms total)
TE6C8 000:774 JLINK_Go() -- CPU_ReadMem(4 bytes @ 0xE0001000) -- CPU_WriteMem(4 bytes @ 0xE0001000) (0003ms, 0519ms total)
TE6C8 000:777 JLINK_IsHalted()  returns FALSE (0001ms, 0520ms total)
TE6C8 000:780 JLINK_IsHalted()  returns FALSE (0001ms, 0520ms total)
TE6C8 000:782 JLINK_IsHalted()  returns FALSE (0001ms, 0520ms total)
TE6C8 000:784 JLINK_IsHalted()  returns FALSE (0001ms, 0520ms total)
TE6C8 000:786 JLINK_IsHalted()  returns FALSE (0000ms, 0519ms total)
TE6C8 000:787 JLINK_IsHalted()  returns FALSE (0000ms, 0519ms total)
TE6C8 000:789 JLINK_IsHalted() -- CPU_ReadMem(2 bytes @ 0x20000000)  returns TRUE (0004ms, 0523ms total)
TE6C8 000:793 JLINK_ReadReg(R15 (PC))  returns 0x20000000 (0000ms, 0519ms total)
TE6C8 000:793 JLINK_ClrBPEx(BPHandle = 0x00000007)  returns 0x00 (0000ms, 0519ms total)
TE6C8 000:793 JLINK_ReadReg(R0)  returns 0x00000000 (0000ms, 0519ms total)
TE6C8 000:793 JLINK_WriteMem(0x20000170, 0x0290 Bytes, ...) - Data: 09 27 00 24 FF 06 AE 02 85 B0 00 28 3B D0 FF F7 ... -- CPU_WriteMem(656 bytes @ 0x20000170)  returns 0x290 (0009ms, 0528ms total)
TE6C8 000:802 JLINK_WriteMem(0x20000400, 0x0170 Bytes, ...) - Data: 18 00 00 20 2E 0A 00 20 00 B5 0C 48 87 B0 42 69 ... -- CPU_WriteMem(368 bytes @ 0x20000400)  returns 0x170 (0005ms, 0533ms total)
TE6C8 000:807 JLINK_WriteReg(R0, 0x08000C00)  returns 0x00 (0000ms, 0533ms total)
TE6C8 000:807 JLINK_WriteReg(R1, 0x00000400)  returns 0x00 (0000ms, 0533ms total)
TE6C8 000:807 JLINK_WriteReg(R2, 0x20000170)  returns 0x00 (0000ms, 0533ms total)
TE6C8 000:807 JLINK_WriteReg(R3, 0x00000000)  returns 0x00 (0000ms, 0533ms total)
TE6C8 000:807 JLINK_WriteReg(R4, 0x00000000)  returns 0x00 (0001ms, 0534ms total)
TE6C8 000:808 JLINK_WriteReg(R5, 0x00000000)  returns 0x00 (0000ms, 0534ms total)
TE6C8 000:808 JLINK_WriteReg(R6, 0x00000000)  returns 0x00 (0000ms, 0534ms total)
TE6C8 000:808 JLINK_WriteReg(R7, 0x00000000)  returns 0x00 (0000ms, 0534ms total)
TE6C8 000:808 JLINK_WriteReg(R8, 0x00000000)  returns 0x00 (0000ms, 0534ms total)
TE6C8 000:808 JLINK_WriteReg(R9, 0x2000016C)  returns 0x00 (0000ms, 0534ms total)
TE6C8 000:809 JLINK_WriteReg(R10, 0x00000000)  returns 0x00 (0000ms, 0535ms total)
TE6C8 000:809 JLINK_WriteReg(R11, 0x00000000)  returns 0x00 (0000ms, 0535ms total)
TE6C8 000:809 JLINK_WriteReg(R12, 0x00000000)  returns 0x00 (0000ms, 0535ms total)
TE6C8 000:809 JLINK_WriteReg(R13 (SP), 0x20001000)  returns 0x00 (0000ms, 0535ms total)
TE6C8 000:809 JLINK_WriteReg(R14, 0x20000001)  returns 0x00 (0000ms, 0535ms total)
TE6C8 000:809 JLINK_WriteReg(R15 (PC), 0x200000FA)  returns 0x00 (0000ms, 0535ms total)
TE6C8 000:810 JLINK_WriteReg(XPSR, 0x01000000)  returns 0x00 (0000ms, 0536ms total)
TE6C8 000:810 JLINK_WriteReg(MSP, 0x20001000)  returns 0x00 (0000ms, 0536ms total)
TE6C8 000:810 JLINK_WriteReg(PSP, 0x20001000)  returns 0x00 (0000ms, 0536ms total)
TE6C8 000:810 JLINK_WriteReg(CFBP, 0x00000000)  returns 0x00 (0000ms, 0536ms total)
TE6C8 000:810 JLINK_SetBPEx(Addr = 0x20000000, Type = 0xFFFFFFF2)  returns 0x00000008 (0000ms, 0536ms total)
TE6C8 000:810 JLINK_Go() -- CPU_ReadMem(4 bytes @ 0xE0001000) -- CPU_WriteMem(4 bytes @ 0xE0001000) (0004ms, 0540ms total)
TE6C8 000:814 JLINK_IsHalted()  returns FALSE (0001ms, 0541ms total)
TE6C8 000:827 JLINK_IsHalted() -- CPU_ReadMem(2 bytes @ 0x20000000)  returns TRUE (0005ms, 0545ms total)
TE6C8 000:832 JLINK_ReadReg(R15 (PC))  returns 0x20000000 (0000ms, 0540ms total)
TE6C8 000:832 JLINK_ClrBPEx(BPHandle = 0x00000008)  returns 0x00 (0000ms, 0540ms total)
TE6C8 000:832 JLINK_ReadReg(R0)  returns 0x00000000 (0000ms, 0540ms total)
TE6C8 000:834 JLINK_WriteMem(0x20000170, 0x0290 Bytes, ...) - Data: 02 90 03 90 6A 46 04 21 17 20 00 F0 27 F8 1F BD ... -- CPU_WriteMem(656 bytes @ 0x20000170)  returns 0x290 (0008ms, 0548ms total)
TE6C8 000:842 JLINK_WriteMem(0x20000400, 0x0170 Bytes, ...) - Data: 00 F0 B0 FB 64 1C B4 42 F4 DB 00 F0 A1 FB 07 B0 ... -- CPU_WriteMem(368 bytes @ 0x20000400)  returns 0x170 (0005ms, 0553ms total)
TE6C8 000:847 JLINK_WriteReg(R0, 0x08001000)  returns 0x00 (0000ms, 0553ms total)
TE6C8 000:847 JLINK_WriteReg(R1, 0x00000400)  returns 0x00 (0000ms, 0553ms total)
TE6C8 000:847 JLINK_WriteReg(R2, 0x20000170)  returns 0x00 (0000ms, 0553ms total)
TE6C8 000:847 JLINK_WriteReg(R3, 0x00000000)  returns 0x00 (0000ms, 0553ms total)
TE6C8 000:847 JLINK_WriteReg(R4, 0x00000000)  returns 0x00 (0000ms, 0553ms total)
TE6C8 000:848 JLINK_WriteReg(R5, 0x00000000)  returns 0x00 (0000ms, 0554ms total)
TE6C8 000:848 JLINK_WriteReg(R6, 0x00000000)  returns 0x00 (0000ms, 0554ms total)
TE6C8 000:848 JLINK_WriteReg(R7, 0x00000000)  returns 0x00 (0000ms, 0554ms total)
TE6C8 000:848 JLINK_WriteReg(R8, 0x00000000)  returns 0x00 (0000ms, 0554ms total)
TE6C8 000:848 JLINK_WriteReg(R9, 0x2000016C)  returns 0x00 (0000ms, 0554ms total)
TE6C8 000:848 JLINK_WriteReg(R10, 0x00000000)  returns 0x00 (0001ms, 0555ms total)
TE6C8 000:849 JLINK_WriteReg(R11, 0x00000000)  returns 0x00 (0000ms, 0555ms total)
TE6C8 000:849 JLINK_WriteReg(R12, 0x00000000)  returns 0x00 (0000ms, 0555ms total)
TE6C8 000:849 JLINK_WriteReg(R13 (SP), 0x20001000)  returns 0x00 (0000ms, 0555ms total)
TE6C8 000:849 JLINK_WriteReg(R14, 0x20000001)  returns 0x00 (0000ms, 0555ms total)
TE6C8 000:849 JLINK_WriteReg(R15 (PC), 0x200000FA)  returns 0x00 (0000ms, 0555ms total)
TE6C8 000:849 JLINK_WriteReg(XPSR, 0x01000000)  returns 0x00 (0001ms, 0556ms total)
TE6C8 000:850 JLINK_WriteReg(MSP, 0x20001000)  returns 0x00 (0000ms, 0556ms total)
TE6C8 000:850 JLINK_WriteReg(PSP, 0x20001000)  returns 0x00 (0000ms, 0556ms total)
TE6C8 000:850 JLINK_WriteReg(CFBP, 0x00000000)  returns 0x00 (0000ms, 0556ms total)
TE6C8 000:850 JLINK_SetBPEx(Addr = 0x20000000, Type = 0xFFFFFFF2)  returns 0x00000009 (0000ms, 0556ms total)
TE6C8 000:850 JLINK_Go() -- CPU_ReadMem(4 bytes @ 0xE0001000) -- CPU_WriteMem(4 bytes @ 0xE0001000) (0004ms, 0560ms total)
TE6C8 000:854 JLINK_IsHalted()  returns FALSE (0001ms, 0561ms total)
TE6C8 000:865 JLINK_IsHalted() -- CPU_ReadMem(2 bytes @ 0x20000000)  returns TRUE (0004ms, 0564ms total)
TE6C8 000:869 JLINK_ReadReg(R15 (PC))  returns 0x20000000 (0000ms, 0560ms total)
TE6C8 000:869 JLINK_ClrBPEx(BPHandle = 0x00000009)  returns 0x00 (0000ms, 0560ms total)
TE6C8 000:869 JLINK_ReadReg(R0)  returns 0x00000000 (0000ms, 0560ms total)
TE6C8 000:870 JLINK_WriteMem(0x20000170, 0x0290 Bytes, ...) - Data: 5B 07 5B 0F 1A 43 42 61 0A 68 10 2A 04 D0 11 2A ... -- CPU_WriteMem(656 bytes @ 0x20000170)  returns 0x290 (0007ms, 0567ms total)
TE6C8 000:877 JLINK_WriteMem(0x20000400, 0x0170 Bytes, ...) - Data: 80 08 80 00 40 1C 60 64 08 E0 60 6C 02 21 88 43 ... -- CPU_WriteMem(368 bytes @ 0x20000400)  returns 0x170 (0005ms, 0572ms total)
TE6C8 000:882 JLINK_WriteReg(R0, 0x08001400)  returns 0x00 (0000ms, 0572ms total)
TE6C8 000:882 JLINK_WriteReg(R1, 0x00000400)  returns 0x00 (0000ms, 0572ms total)
TE6C8 000:882 JLINK_WriteReg(R2, 0x20000170)  returns 0x00 (0000ms, 0572ms total)
TE6C8 000:882 JLINK_WriteReg(R3, 0x00000000)  returns 0x00 (0000ms, 0572ms total)
TE6C8 000:882 JLINK_WriteReg(R4, 0x00000000)  returns 0x00 (0000ms, 0572ms total)
TE6C8 000:882 JLINK_WriteReg(R5, 0x00000000)  returns 0x00 (0000ms, 0572ms total)
TE6C8 000:882 JLINK_WriteReg(R6, 0x00000000)  returns 0x00 (0000ms, 0572ms total)
TE6C8 000:882 JLINK_WriteReg(R7, 0x00000000)  returns 0x00 (0000ms, 0572ms total)
TE6C8 000:882 JLINK_WriteReg(R8, 0x00000000)  returns 0x00 (0000ms, 0572ms total)
TE6C8 000:882 JLINK_WriteReg(R9, 0x2000016C)  returns 0x00 (0000ms, 0572ms total)
TE6C8 000:882 JLINK_WriteReg(R10, 0x00000000)  returns 0x00 (0000ms, 0572ms total)
TE6C8 000:882 JLINK_WriteReg(R11, 0x00000000)  returns 0x00 (0000ms, 0572ms total)
TE6C8 000:882 JLINK_WriteReg(R12, 0x00000000)  returns 0x00 (0000ms, 0572ms total)
TE6C8 000:882 JLINK_WriteReg(R13 (SP), 0x20001000)  returns 0x00 (0000ms, 0572ms total)
TE6C8 000:882 JLINK_WriteReg(R14, 0x20000001)  returns 0x00 (0000ms, 0572ms total)
TE6C8 000:882 JLINK_WriteReg(R15 (PC), 0x200000FA)  returns 0x00 (0000ms, 0572ms total)
TE6C8 000:882 JLINK_WriteReg(XPSR, 0x01000000)  returns 0x00 (0000ms, 0572ms total)
TE6C8 000:882 JLINK_WriteReg(MSP, 0x20001000)  returns 0x00 (0000ms, 0572ms total)
TE6C8 000:883 JLINK_WriteReg(PSP, 0x20001000)  returns 0x00 (0000ms, 0573ms total)
TE6C8 000:883 JLINK_WriteReg(CFBP, 0x00000000)  returns 0x00 (0000ms, 0573ms total)
TE6C8 000:883 JLINK_SetBPEx(Addr = 0x20000000, Type = 0xFFFFFFF2)  returns 0x0000000A (0000ms, 0573ms total)
TE6C8 000:883 JLINK_Go() -- CPU_ReadMem(4 bytes @ 0xE0001000) -- CPU_WriteMem(4 bytes @ 0xE0001000) (0004ms, 0577ms total)
TE6C8 000:887 JLINK_IsHalted()  returns FALSE (0000ms, 0577ms total)
TE6C8 000:888 JLINK_IsHalted()  returns FALSE (0000ms, 0577ms total)
TE6C8 000:890 JLINK_IsHalted()  returns FALSE (0001ms, 0578ms total)
TE6C8 000:892 JLINK_IsHalted()  returns FALSE (0000ms, 0577ms total)
TE6C8 000:894 JLINK_IsHalted()  returns FALSE (0000ms, 0577ms total)
TE6C8 000:896 JLINK_IsHalted()  returns FALSE (0000ms, 0577ms total)
TE6C8 000:898 JLINK_IsHalted() -- CPU_ReadMem(2 bytes @ 0x20000000)  returns TRUE (0004ms, 0581ms total)
TE6C8 000:902 JLINK_ReadReg(R15 (PC))  returns 0x20000000 (0000ms, 0577ms total)
TE6C8 000:902 JLINK_ClrBPEx(BPHandle = 0x0000000A)  returns 0x00 (0000ms, 0577ms total)
TE6C8 000:902 JLINK_ReadReg(R0)  returns 0x00000000 (0000ms, 0577ms total)
TE6C8 000:902 JLINK_WriteMem(0x20000170, 0x0290 Bytes, ...) - Data: 20 23 18 43 60 64 A0 6C 10 43 A0 64 A0 69 00 28 ... -- CPU_WriteMem(656 bytes @ 0x20000170)  returns 0x290 (0008ms, 0585ms total)
TE6C8 000:911 JLINK_WriteMem(0x20000400, 0x0170 Bytes, ...) - Data: 23 01 67 45 AB 89 EF CD F0 B5 00 23 58 E0 01 22 ... -- CPU_WriteMem(368 bytes @ 0x20000400)  returns 0x170 (0004ms, 0589ms total)
TE6C8 000:915 JLINK_WriteReg(R0, 0x08001800)  returns 0x00 (0000ms, 0589ms total)
TE6C8 000:915 JLINK_WriteReg(R1, 0x00000400)  returns 0x00 (0000ms, 0589ms total)
TE6C8 000:915 JLINK_WriteReg(R2, 0x20000170)  returns 0x00 (0000ms, 0589ms total)
TE6C8 000:915 JLINK_WriteReg(R3, 0x00000000)  returns 0x00 (0000ms, 0589ms total)
TE6C8 000:915 JLINK_WriteReg(R4, 0x00000000)  returns 0x00 (0000ms, 0589ms total)
TE6C8 000:915 JLINK_WriteReg(R5, 0x00000000)  returns 0x00 (0000ms, 0589ms total)
TE6C8 000:915 JLINK_WriteReg(R6, 0x00000000)  returns 0x00 (0000ms, 0589ms total)
TE6C8 000:915 JLINK_WriteReg(R7, 0x00000000)  returns 0x00 (0000ms, 0589ms total)
TE6C8 000:915 JLINK_WriteReg(R8, 0x00000000)  returns 0x00 (0000ms, 0589ms total)
TE6C8 000:915 JLINK_WriteReg(R9, 0x2000016C)  returns 0x00 (0000ms, 0589ms total)
TE6C8 000:915 JLINK_WriteReg(R10, 0x00000000)  returns 0x00 (0000ms, 0589ms total)
TE6C8 000:915 JLINK_WriteReg(R11, 0x00000000)  returns 0x00 (0000ms, 0589ms total)
TE6C8 000:915 JLINK_WriteReg(R12, 0x00000000)  returns 0x00 (0000ms, 0589ms total)
TE6C8 000:915 JLINK_WriteReg(R13 (SP), 0x20001000)  returns 0x00 (0000ms, 0589ms total)
TE6C8 000:915 JLINK_WriteReg(R14, 0x20000001)  returns 0x00 (0000ms, 0589ms total)
TE6C8 000:915 JLINK_WriteReg(R15 (PC), 0x200000FA)  returns 0x00 (0000ms, 0589ms total)
TE6C8 000:915 JLINK_WriteReg(XPSR, 0x01000000)  returns 0x00 (0000ms, 0589ms total)
TE6C8 000:915 JLINK_WriteReg(MSP, 0x20001000)  returns 0x00 (0000ms, 0589ms total)
TE6C8 000:915 JLINK_WriteReg(PSP, 0x20001000)  returns 0x00 (0000ms, 0589ms total)
TE6C8 000:915 JLINK_WriteReg(CFBP, 0x00000000)  returns 0x00 (0000ms, 0589ms total)
TE6C8 000:915 JLINK_SetBPEx(Addr = 0x20000000, Type = 0xFFFFFFF2)  returns 0x0000000B (0000ms, 0589ms total)
TE6C8 000:915 JLINK_Go() -- CPU_ReadMem(4 bytes @ 0xE0001000) -- CPU_WriteMem(4 bytes @ 0xE0001000) (0004ms, 0593ms total)
TE6C8 000:919 JLINK_IsHalted()  returns FALSE (0001ms, 0594ms total)
TE6C8 000:922 JLINK_IsHalted()  returns FALSE (0001ms, 0594ms total)
TE6C8 000:924 JLINK_IsHalted()  returns FALSE (0001ms, 0594ms total)
TE6C8 000:926 JLINK_IsHalted()  returns FALSE (0001ms, 0594ms total)
TE6C8 000:929 JLINK_IsHalted()  returns FALSE (0001ms, 0594ms total)
TE6C8 000:931 JLINK_IsHalted() -- CPU_ReadMem(2 bytes @ 0x20000000)  returns TRUE (0004ms, 0597ms total)
TE6C8 000:935 JLINK_ReadReg(R15 (PC))  returns 0x20000000 (0000ms, 0593ms total)
TE6C8 000:935 JLINK_ClrBPEx(BPHandle = 0x0000000B)  returns 0x00 (0000ms, 0593ms total)
TE6C8 000:935 JLINK_ReadReg(R0)  returns 0x00000000 (0000ms, 0593ms total)
TE6C8 000:936 JLINK_WriteMem(0x20000170, 0x0290 Bytes, ...) - Data: 07 70 67 72 10 4F 60 3F 79 6C 01 20 88 47 20 48 ... -- CPU_WriteMem(656 bytes @ 0x20000170)  returns 0x290 (0008ms, 0601ms total)
TE6C8 000:944 JLINK_WriteMem(0x20000400, 0x0170 Bytes, ...) - Data: 00 68 01 68 21 43 01 60 20 20 50 70 00 20 10 70 ... -- CPU_WriteMem(368 bytes @ 0x20000400)  returns 0x170 (0004ms, 0605ms total)
TE6C8 000:948 JLINK_WriteReg(R0, 0x08001C00)  returns 0x00 (0000ms, 0605ms total)
TE6C8 000:948 JLINK_WriteReg(R1, 0x00000400)  returns 0x00 (0000ms, 0605ms total)
TE6C8 000:948 JLINK_WriteReg(R2, 0x20000170)  returns 0x00 (0000ms, 0605ms total)
TE6C8 000:948 JLINK_WriteReg(R3, 0x00000000)  returns 0x00 (0000ms, 0605ms total)
TE6C8 000:948 JLINK_WriteReg(R4, 0x00000000)  returns 0x00 (0000ms, 0605ms total)
TE6C8 000:948 JLINK_WriteReg(R5, 0x00000000)  returns 0x00 (0000ms, 0605ms total)
TE6C8 000:948 JLINK_WriteReg(R6, 0x00000000)  returns 0x00 (0000ms, 0605ms total)
TE6C8 000:948 JLINK_WriteReg(R7, 0x00000000)  returns 0x00 (0000ms, 0605ms total)
TE6C8 000:948 JLINK_WriteReg(R8, 0x00000000)  returns 0x00 (0000ms, 0605ms total)
TE6C8 000:948 JLINK_WriteReg(R9, 0x2000016C)  returns 0x00 (0000ms, 0605ms total)
TE6C8 000:948 JLINK_WriteReg(R10, 0x00000000)  returns 0x00 (0000ms, 0605ms total)
TE6C8 000:948 JLINK_WriteReg(R11, 0x00000000)  returns 0x00 (0000ms, 0605ms total)
TE6C8 000:948 JLINK_WriteReg(R12, 0x00000000)  returns 0x00 (0000ms, 0605ms total)
TE6C8 000:949 JLINK_WriteReg(R13 (SP), 0x20001000)  returns 0x00 (0000ms, 0605ms total)
TE6C8 000:949 JLINK_WriteReg(R14, 0x20000001)  returns 0x00 (0000ms, 0605ms total)
TE6C8 000:949 JLINK_WriteReg(R15 (PC), 0x200000FA)  returns 0x00 (0000ms, 0605ms total)
TE6C8 000:949 JLINK_WriteReg(XPSR, 0x01000000)  returns 0x00 (0000ms, 0605ms total)
TE6C8 000:949 JLINK_WriteReg(MSP, 0x20001000)  returns 0x00 (0000ms, 0605ms total)
TE6C8 000:949 JLINK_WriteReg(PSP, 0x20001000)  returns 0x00 (0000ms, 0605ms total)
TE6C8 000:949 JLINK_WriteReg(CFBP, 0x00000000)  returns 0x00 (0000ms, 0605ms total)
TE6C8 000:949 JLINK_SetBPEx(Addr = 0x20000000, Type = 0xFFFFFFF2)  returns 0x0000000C (0000ms, 0605ms total)
TE6C8 000:949 JLINK_Go() -- CPU_ReadMem(4 bytes @ 0xE0001000) -- CPU_WriteMem(4 bytes @ 0xE0001000) (0003ms, 0608ms total)
TE6C8 000:952 JLINK_IsHalted()  returns FALSE (0000ms, 0608ms total)
TE6C8 000:956 JLINK_IsHalted()  returns FALSE (0000ms, 0608ms total)
TE6C8 000:958 JLINK_IsHalted()  returns FALSE (0000ms, 0608ms total)
TE6C8 000:960 JLINK_IsHalted()  returns FALSE (0000ms, 0608ms total)
TE6C8 000:962 JLINK_IsHalted()  returns FALSE (0000ms, 0608ms total)
TE6C8 000:964 JLINK_IsHalted() -- CPU_ReadMem(2 bytes @ 0x20000000)  returns TRUE (0003ms, 0611ms total)
TE6C8 000:967 JLINK_ReadReg(R15 (PC))  returns 0x20000000 (0000ms, 0608ms total)
TE6C8 000:967 JLINK_ClrBPEx(BPHandle = 0x0000000C)  returns 0x00 (0000ms, 0608ms total)
TE6C8 000:967 JLINK_ReadReg(R0)  returns 0x00000000 (0000ms, 0608ms total)
TE6C8 000:968 JLINK_WriteMem(0x20000170, 0x0290 Bytes, ...) - Data: 00 28 03 D0 60 6C 04 28 47 D0 1A E0 20 68 41 6A ... -- CPU_WriteMem(656 bytes @ 0x20000170)  returns 0x290 (0007ms, 0615ms total)
TE6C8 000:975 JLINK_WriteMem(0x20000400, 0x0170 Bytes, ...) - Data: 00 28 21 D0 00 97 00 22 80 21 20 46 0E 9B 01 F0 ... -- CPU_WriteMem(368 bytes @ 0x20000400)  returns 0x170 (0005ms, 0620ms total)
TE6C8 000:980 JLINK_WriteReg(R0, 0x08002000)  returns 0x00 (0000ms, 0620ms total)
TE6C8 000:980 JLINK_WriteReg(R1, 0x00000400)  returns 0x00 (0000ms, 0620ms total)
TE6C8 000:980 JLINK_WriteReg(R2, 0x20000170)  returns 0x00 (0000ms, 0620ms total)
TE6C8 000:980 JLINK_WriteReg(R3, 0x00000000)  returns 0x00 (0000ms, 0620ms total)
TE6C8 000:980 JLINK_WriteReg(R4, 0x00000000)  returns 0x00 (0000ms, 0620ms total)
TE6C8 000:980 JLINK_WriteReg(R5, 0x00000000)  returns 0x00 (0000ms, 0620ms total)
TE6C8 000:980 JLINK_WriteReg(R6, 0x00000000)  returns 0x00 (0000ms, 0620ms total)
TE6C8 000:980 JLINK_WriteReg(R7, 0x00000000)  returns 0x00 (0000ms, 0620ms total)
TE6C8 000:980 JLINK_WriteReg(R8, 0x00000000)  returns 0x00 (0000ms, 0620ms total)
TE6C8 000:980 JLINK_WriteReg(R9, 0x2000016C)  returns 0x00 (0000ms, 0620ms total)
TE6C8 000:980 JLINK_WriteReg(R10, 0x00000000)  returns 0x00 (0001ms, 0621ms total)
TE6C8 000:981 JLINK_WriteReg(R11, 0x00000000)  returns 0x00 (0000ms, 0621ms total)
TE6C8 000:981 JLINK_WriteReg(R12, 0x00000000)  returns 0x00 (0000ms, 0621ms total)
TE6C8 000:981 JLINK_WriteReg(R13 (SP), 0x20001000)  returns 0x00 (0000ms, 0621ms total)
TE6C8 000:981 JLINK_WriteReg(R14, 0x20000001)  returns 0x00 (0000ms, 0621ms total)
TE6C8 000:981 JLINK_WriteReg(R15 (PC), 0x200000FA)  returns 0x00 (0000ms, 0621ms total)
TE6C8 000:981 JLINK_WriteReg(XPSR, 0x01000000)  returns 0x00 (0000ms, 0621ms total)
TE6C8 000:981 JLINK_WriteReg(MSP, 0x20001000)  returns 0x00 (0000ms, 0621ms total)
TE6C8 000:981 JLINK_WriteReg(PSP, 0x20001000)  returns 0x00 (0000ms, 0621ms total)
TE6C8 000:981 JLINK_WriteReg(CFBP, 0x00000000)  returns 0x00 (0000ms, 0621ms total)
TE6C8 000:981 JLINK_SetBPEx(Addr = 0x20000000, Type = 0xFFFFFFF2)  returns 0x0000000D (0000ms, 0621ms total)
TE6C8 000:981 JLINK_Go() -- CPU_ReadMem(4 bytes @ 0xE0001000) -- CPU_WriteMem(4 bytes @ 0xE0001000) (0003ms, 0624ms total)
TE6C8 000:984 JLINK_IsHalted()  returns FALSE (0000ms, 0624ms total)
TE6C8 000:986 JLINK_IsHalted()  returns FALSE (0000ms, 0624ms total)
TE6C8 000:988 JLINK_IsHalted()  returns FALSE (0000ms, 0624ms total)
TE6C8 000:990 JLINK_IsHalted()  returns FALSE (0000ms, 0624ms total)
TE6C8 000:992 JLINK_IsHalted()  returns FALSE (0000ms, 0624ms total)
TE6C8 000:994 JLINK_IsHalted()  returns FALSE (0000ms, 0624ms total)
TE6C8 000:996 JLINK_IsHalted() -- CPU_ReadMem(2 bytes @ 0x20000000)  returns TRUE (0003ms, 0627ms total)
TE6C8 000:999 JLINK_ReadReg(R15 (PC))  returns 0x20000000 (0000ms, 0624ms total)
TE6C8 000:999 JLINK_ClrBPEx(BPHandle = 0x0000000D)  returns 0x00 (0000ms, 0624ms total)
TE6C8 000:999 JLINK_ReadReg(R0)  returns 0x00000000 (0000ms, 0624ms total)
TE6C8 001:000 JLINK_WriteMem(0x20000170, 0x0290 Bytes, ...) - Data: 08 40 00 90 08 BD 00 00 00 10 02 40 C1 06 C9 0E ... -- CPU_WriteMem(656 bytes @ 0x20000170)  returns 0x290 (0007ms, 0631ms total)
TE6C8 001:007 JLINK_WriteMem(0x20000400, 0x0170 Bytes, ...) - Data: 0C 00 00 20 01 48 00 68 70 47 00 00 0C 00 00 20 ... -- CPU_WriteMem(368 bytes @ 0x20000400)  returns 0x170 (0005ms, 0636ms total)
TE6C8 001:012 JLINK_WriteReg(R0, 0x08002400)  returns 0x00 (0000ms, 0636ms total)
TE6C8 001:012 JLINK_WriteReg(R1, 0x00000400)  returns 0x00 (0000ms, 0636ms total)
TE6C8 001:012 JLINK_WriteReg(R2, 0x20000170)  returns 0x00 (0000ms, 0636ms total)
TE6C8 001:012 JLINK_WriteReg(R3, 0x00000000)  returns 0x00 (0000ms, 0636ms total)
TE6C8 001:012 JLINK_WriteReg(R4, 0x00000000)  returns 0x00 (0000ms, 0636ms total)
TE6C8 001:012 JLINK_WriteReg(R5, 0x00000000)  returns 0x00 (0000ms, 0636ms total)
TE6C8 001:012 JLINK_WriteReg(R6, 0x00000000)  returns 0x00 (0000ms, 0636ms total)
TE6C8 001:012 JLINK_WriteReg(R7, 0x00000000)  returns 0x00 (0000ms, 0636ms total)
TE6C8 001:012 JLINK_WriteReg(R8, 0x00000000)  returns 0x00 (0000ms, 0636ms total)
TE6C8 001:012 JLINK_WriteReg(R9, 0x2000016C)  returns 0x00 (0000ms, 0636ms total)
TE6C8 001:012 JLINK_WriteReg(R10, 0x00000000)  returns 0x00 (0000ms, 0636ms total)
TE6C8 001:012 JLINK_WriteReg(R11, 0x00000000)  returns 0x00 (0000ms, 0636ms total)
TE6C8 001:012 JLINK_WriteReg(R12, 0x00000000)  returns 0x00 (0000ms, 0636ms total)
TE6C8 001:012 JLINK_WriteReg(R13 (SP), 0x20001000)  returns 0x00 (0000ms, 0636ms total)
TE6C8 001:012 JLINK_WriteReg(R14, 0x20000001)  returns 0x00 (0000ms, 0636ms total)
TE6C8 001:012 JLINK_WriteReg(R15 (PC), 0x200000FA)  returns 0x00 (0000ms, 0636ms total)
TE6C8 001:012 JLINK_WriteReg(XPSR, 0x01000000)  returns 0x00 (0000ms, 0636ms total)
TE6C8 001:012 JLINK_WriteReg(MSP, 0x20001000)  returns 0x00 (0000ms, 0636ms total)
TE6C8 001:012 JLINK_WriteReg(PSP, 0x20001000)  returns 0x00 (0001ms, 0637ms total)
TE6C8 001:013 JLINK_WriteReg(CFBP, 0x00000000)  returns 0x00 (0000ms, 0637ms total)
TE6C8 001:013 JLINK_SetBPEx(Addr = 0x20000000, Type = 0xFFFFFFF2)  returns 0x0000000E (0000ms, 0637ms total)
TE6C8 001:013 JLINK_Go() -- CPU_ReadMem(4 bytes @ 0xE0001000) -- CPU_WriteMem(4 bytes @ 0xE0001000) (0002ms, 0639ms total)
TE6C8 001:015 JLINK_IsHalted()  returns FALSE (0001ms, 0640ms total)
TE6C8 001:018 JLINK_IsHalted()  returns FALSE (0000ms, 0639ms total)
TE6C8 001:020 JLINK_IsHalted()  returns FALSE (0000ms, 0639ms total)
TE6C8 001:022 JLINK_IsHalted()  returns FALSE (0000ms, 0639ms total)
TE6C8 001:024 JLINK_IsHalted()  returns FALSE (0000ms, 0639ms total)
TE6C8 001:025 JLINK_IsHalted()  returns FALSE (0001ms, 0640ms total)
TE6C8 001:027 JLINK_IsHalted() -- CPU_ReadMem(2 bytes @ 0x20000000)  returns TRUE (0004ms, 0643ms total)
TE6C8 001:031 JLINK_ReadReg(R15 (PC))  returns 0x20000000 (0000ms, 0639ms total)
TE6C8 001:031 JLINK_ClrBPEx(BPHandle = 0x0000000E)  returns 0x00 (0000ms, 0639ms total)
TE6C8 001:031 JLINK_ReadReg(R0)  returns 0x00000000 (0000ms, 0639ms total)
TE6C8 001:031 JLINK_WriteMem(0x20000170, 0x0290 Bytes, ...) - Data: 32 D1 11 E0 E0 68 00 28 28 68 15 D0 30 43 28 60 ... -- CPU_WriteMem(656 bytes @ 0x20000170)  returns 0x290 (0008ms, 0647ms total)
TE6C8 001:039 JLINK_WriteMem(0x20000400, 0x0170 Bytes, ...) - Data: 0B 46 40 68 C0 21 C9 43 01 40 00 02 00 0E CC 04 ... -- CPU_WriteMem(368 bytes @ 0x20000400)  returns 0x170 (0005ms, 0652ms total)
TE6C8 001:044 JLINK_WriteReg(R0, 0x08002800)  returns 0x00 (0000ms, 0652ms total)
TE6C8 001:044 JLINK_WriteReg(R1, 0x00000400)  returns 0x00 (0000ms, 0652ms total)
TE6C8 001:044 JLINK_WriteReg(R2, 0x20000170)  returns 0x00 (0000ms, 0652ms total)
TE6C8 001:044 JLINK_WriteReg(R3, 0x00000000)  returns 0x00 (0000ms, 0652ms total)
TE6C8 001:044 JLINK_WriteReg(R4, 0x00000000)  returns 0x00 (0000ms, 0652ms total)
TE6C8 001:044 JLINK_WriteReg(R5, 0x00000000)  returns 0x00 (0000ms, 0652ms total)
TE6C8 001:044 JLINK_WriteReg(R6, 0x00000000)  returns 0x00 (0000ms, 0652ms total)
TE6C8 001:044 JLINK_WriteReg(R7, 0x00000000)  returns 0x00 (0000ms, 0652ms total)
TE6C8 001:044 JLINK_WriteReg(R8, 0x00000000)  returns 0x00 (0000ms, 0652ms total)
TE6C8 001:044 JLINK_WriteReg(R9, 0x2000016C)  returns 0x00 (0000ms, 0652ms total)
TE6C8 001:044 JLINK_WriteReg(R10, 0x00000000)  returns 0x00 (0000ms, 0652ms total)
TE6C8 001:044 JLINK_WriteReg(R11, 0x00000000)  returns 0x00 (0000ms, 0652ms total)
TE6C8 001:044 JLINK_WriteReg(R12, 0x00000000)  returns 0x00 (0000ms, 0652ms total)
